(1727342963.202127) can0 221#0000000000000000
(1727342963.222138) can0 221#0000000000000000
(1727342963.242130) can0 221#0000000000000000
(1727342963.262155) can0 221#0000000000000000
(1727342963.282159) can0 221#0000000000000000
(1727342963.302165) can0 221#0000000000000000
(1727342963.322173) can0 221#0000000000000000
(1727342963.342160) can0 221#0000000000000000
(1727342963.362166) can0 221#0000000000000000
(1727342963.382187) can0 221#0000000000000000
(1727342963.402175) can0 221#0000000000000000
(1727342963.422178) can0 221#0000000000000000
(1727342963.442157) can0 221#0000000000000000
(1727342963.462155) can0 221#0000000000000000
(1727342963.482162) can0 221#0000000000000000
(1727342963.502168) can0 221#0000000000000000
(1727342963.522170) can0 221#0000000000000000
(1727342963.542161) can0 221#0000000000000000
(1727342963.562168) can0 221#0000000000000000
(1727342963.582194) can0 221#0000000000000000
(1727342963.602187) can0 221#0000000000000000
(1727342963.622177) can0 221#0000000000000000
(1727342963.642190) can0 221#0000000000000000
(1727342963.662193) can0 221#0000000000000000
(1727342963.682190) can0 221#0000000000000000
(1727342963.702197) can0 221#0000000000000000
(1727342963.722207) can0 221#0000000000000000
(1727342963.742202) can0 221#0000000000000000
(1727342963.762199) can0 221#0000000000000000
(1727342963.782208) can0 221#0000000000000000
(1727342963.802194) can0 221#0000000000000000
(1727342963.822211) can0 221#0000000000000000
(1727342963.842215) can0 221#0000000000000000
(1727342963.862232) can0 221#0000000000000000
(1727342963.882263) can0 221#0000000000000000
(1727342963.902231) can0 221#0000000000000000
(1727342963.922235) can0 221#0000000000000000
(1727342963.942220) can0 221#0000000000000000
(1727342963.962237) can0 221#0000000000000000
(1727342963.982214) can0 221#0000000000000000
(1727342964.002238) can0 221#0000000000000000
(1727342964.022227) can0 221#0000000000000000
(1727342964.042231) can0 221#0000000000000000
(1727342964.062229) can0 221#0000000000000000
(1727342964.082227) can0 221#0000000000000000
(1727342964.102240) can0 221#0000000000000000
(1727342964.122233) can0 221#0000000000000000
(1727342964.142234) can0 221#0000000000000000
(1727342964.162243) can0 221#0000000000000000
(1727342964.182233) can0 221#0000000000000000
(1727342964.202238) can0 221#0000000000000000
(1727342964.222235) can0 221#0000000000000000
(1727342964.242246) can0 221#0000000000000000
(1727342964.262259) can0 221#0000000000000000
(1727342964.282248) can0 221#0000000000000000
(1727342964.302255) can0 221#0000000000000000
(1727342964.322258) can0 221#0000000000000000
(1727342964.342260) can0 221#0000000000000000
(1727342964.362344) can0 221#0000000000000000
(1727342964.382329) can0 221#0000000000000000
(1727342964.402337) can0 221#0000000000000000
(1727342964.422316) can0 221#0000000000000000
(1727342964.442287) can0 221#0000000000000000
(1727342964.462284) can0 221#0000000000000000
(1727342964.482289) can0 221#0000000000000000
(1727342964.502281) can0 221#0000000000000000
(1727342964.522288) can0 221#0000000000000000
(1727342964.542280) can0 221#0000000000000000
(1727342964.562315) can0 221#0000000000000000
(1727342964.582279) can0 221#0000000000000000
(1727342964.602347) can0 221#0000000000000000
(1727342964.622354) can0 221#0000000000000000
(1727342964.642327) can0 221#0000000000000000
(1727342964.662330) can0 221#0000000000000000
(1727342964.682282) can0 221#0000000000000000
(1727342964.702296) can0 221#0000000000000000
(1727342964.722306) can0 221#0000000000000000
(1727342964.742301) can0 221#0000000000000000
(1727342964.762308) can0 221#0000000000000000
(1727342964.782295) can0 221#0000000000000000
(1727342964.802297) can0 221#0000000000000000
(1727342964.822307) can0 221#0000000000000000
(1727342964.842310) can0 221#0000000000000000
(1727342964.862391) can0 221#0000000000000000
(1727342964.882337) can0 221#0000000000000000
(1727342964.902368) can0 221#0000000000000000
(1727342964.922373) can0 221#0000000000000000
(1727342964.942310) can0 221#0000000000000000
(1727342964.962336) can0 221#0000000000000000
(1727342964.982334) can0 221#0000000000000000
(1727342965.002424) can0 221#0000000000000000
(1727342965.022335) can0 221#0000000000000000
(1727342965.042341) can0 221#0000000000000000
(1727342965.062357) can0 221#0000000000000000
(1727342965.082339) can0 221#0000000000000000
(1727342965.102577) can0 221#0000000000000000
(1727342965.122380) can0 221#0000000000000000
(1727342965.142374) can0 221#0000000000000000
(1727342965.162401) can0 221#0000000000000000
(1727342965.182350) can0 221#0000000000000000
(1727342965.202379) can0 221#0000000000000000
(1727342965.222371) can0 221#0000000000000000
(1727342965.242380) can0 221#0000000000000000
(1727342965.262379) can0 221#0000000000000000
(1727342965.282355) can0 221#0000000000000000
(1727342965.302382) can0 221#0000000000000000
(1727342965.322386) can0 221#0000000000000000
(1727342965.342371) can0 221#0000000000000000
(1727342965.362397) can0 221#0000000000000000
(1727342965.382379) can0 221#0000000000000000
(1727342965.402403) can0 221#0000000000000000
(1727342965.422409) can0 221#0000000000000000
(1727342965.442388) can0 221#0000000000000000
(1727342965.462390) can0 221#0000000000000000
(1727342965.482386) can0 221#0000000000000000
(1727342965.502392) can0 221#0000000000000000
(1727342965.522390) can0 221#0000000000000000
(1727342965.542388) can0 221#0000000000000000
(1727342965.562389) can0 221#0000000000000000
(1727342965.582390) can0 221#0000000000000000
(1727342965.602455) can0 221#0000000000000000
(1727342965.622406) can0 221#0000000000000000
(1727342965.642455) can0 221#0000000000000000
(1727342965.662466) can0 221#0000000000000000
(1727342965.682421) can0 221#0000000000000000
(1727342965.702425) can0 221#0000000000000000
(1727342965.722417) can0 221#0000000000000000
(1727342965.742427) can0 221#0000000000000000
(1727342965.762425) can0 221#0000000000000000
(1727342965.782422) can0 221#0000000000000000
(1727342965.802426) can0 221#0000000000000000
(1727342965.822413) can0 221#0000000000000000
(1727342965.842419) can0 221#0000000000000000
(1727342965.862454) can0 221#0000000000000000
(1727342965.882447) can0 221#0000000000000000
(1727342965.902457) can0 221#0000000000000000
(1727342965.922445) can0 221#0000000000000000
(1727342965.942445) can0 221#0000000000000000
(1727342965.962443) can0 221#0000000000000000
(1727342965.982446) can0 221#0000000000000000
(1727342966.002453) can0 221#0000000000000000
(1727342966.022454) can0 221#0000000000000000
(1727342966.042456) can0 221#0000000000000000
(1727342966.062444) can0 221#0000000000000000
(1727342966.082450) can0 221#0000000000000000
(1727342966.102456) can0 221#0000000000000000
(1727342966.122455) can0 221#0000000000000000
(1727342966.142519) can0 221#0000000000000000
(1727342966.162528) can0 221#0000000000000000
(1727342966.182457) can0 221#0000000000000000
(1727342966.202464) can0 221#0000000000000000
(1727342966.222465) can0 221#0000000000000000
(1727342966.242482) can0 221#0000000000000000
(1727342966.262480) can0 221#0000000000000000
(1727342966.282479) can0 221#0000000000000000
(1727342966.302482) can0 221#0000000000000000
(1727342966.322470) can0 221#0000000000000000
(1727342966.342483) can0 221#0000000000000000
(1727342966.362543) can0 221#0000000000000000
(1727342966.382532) can0 221#0000000000000000
(1727342966.402540) can0 221#0000000000000000
(1727342966.422543) can0 221#0000000000000000
(1727342966.442472) can0 221#0000000000000000
(1727342966.462473) can0 221#0000000000000000
(1727342966.482491) can0 221#0000000000000000
(1727342966.502496) can0 221#0000000000000000
(1727342966.522495) can0 221#0000000000000000
(1727342966.542503) can0 221#0000000000000000
(1727342966.562529) can0 221#0000000000000000
(1727342966.582546) can0 221#0000000000000000
(1727342966.602522) can0 221#0000000000000000
(1727342966.622548) can0 221#0000000000000000
(1727342966.642542) can0 221#0000000000000000
(1727342966.662547) can0 221#0000000000000000
(1727342966.682527) can0 221#0000000000000000
(1727342966.702531) can0 221#0000000000000000
(1727342966.722520) can0 221#0000000000000000
(1727342966.742546) can0 221#0000000000000000
(1727342966.762579) can0 221#0000000000000000
(1727342966.782697) can0 221#0000000000000000
(1727342966.802521) can0 221#0000000000000000
(1727342966.822566) can0 221#0000000000000000
(1727342966.842513) can0 221#0000000000000000
(1727342966.862597) can0 221#0000000000000000
(1727342966.882600) can0 221#0000000000000000
(1727342966.902597) can0 221#0000000000000000
(1727342966.922602) can0 221#0000000000000000
(1727342966.942538) can0 221#0000000000000000
(1727342966.962549) can0 221#0000000000000000
(1727342966.982547) can0 221#0000000000000000
(1727342967.002557) can0 221#0000000000000000
(1727342967.022550) can0 221#0000000000000000
(1727342967.042543) can0 221#0000000000000000
(1727342967.062544) can0 221#0000000000000000
(1727342967.082556) can0 221#0000000000000000
(1727342967.102604) can0 221#0000000000000000
(1727342967.122604) can0 221#0000000000000000
(1727342967.142554) can0 221#0000000000000000
(1727342967.162607) can0 221#0000000000000000
(1727342967.182584) can0 221#0000000000000000
(1727342967.202560) can0 221#0000000000000000
(1727342967.222578) can0 221#0000000000000000
(1727342967.242564) can0 221#0000000000000000
(1727342967.262577) can0 221#0000000000000000
(1727342967.282821) can0 221#0000000000000000
(1727342967.302584) can0 221#0000000000000000
(1727342967.322575) can0 221#0000000000000000
(1727342967.342590) can0 221#0000000000000000
(1727342967.362658) can0 221#0000000000000000
(1727342967.382658) can0 221#0000000000000000
(1727342967.402595) can0 221#0000000000000000
(1727342967.422658) can0 221#0000000000000000
(1727342967.442602) can0 221#0000000000000000
(1727342967.462601) can0 221#0000000000000000
(1727342967.482602) can0 221#0000000000000000
(1727342967.502613) can0 221#0000000000000000
(1727342967.522604) can0 221#0000000000000000
(1727342967.542623) can0 221#0000000000000000
(1727342967.562611) can0 221#0000000000000000
(1727342967.582635) can0 221#0000000000000000
(1727342967.602681) can0 221#0000000000000000
(1727342967.622606) can0 221#0000000000000000
(1727342967.642683) can0 221#0000000000000000
(1727342967.662681) can0 221#0000000000000000
(1727342967.682624) can0 221#0000000000000000
(1727342967.702633) can0 221#0000000000000000
(1727342967.722631) can0 221#0000000000000000
(1727342967.742653) can0 221#0000000000000000
(1727342967.762625) can0 221#0000000000000000
(1727342967.782654) can0 221#0000000000000000
(1727342967.802644) can0 221#0000000000000000
(1727342967.822656) can0 221#0000000000000000
(1727342967.842640) can0 221#0000000000000000
(1727342967.862660) can0 221#0000000000000000
(1727342967.882686) can0 221#0000000000000000
(1727342967.902665) can0 221#0000000000000000
(1727342967.922663) can0 221#0000000000000000
(1727342967.942654) can0 221#0000000000000000
(1727342967.962671) can0 221#0000000000000000
(1727342967.982658) can0 221#0000000000000000
(1727342968.002666) can0 221#0000000000000000
(1727342968.022670) can0 221#0000000000000000
(1727342968.042672) can0 221#0000000000000000
(1727342968.062670) can0 221#0000000000000000
(1727342968.082668) can0 221#0000000000000000
(1727342968.102741) can0 221#0000000000000000
(1727342968.122731) can0 221#0000000000000000
(1727342968.142746) can0 221#0000000000000000
(1727342968.162805) can0 221#0000000000000000
(1727342968.182670) can0 221#0000000000000000
(1727342968.202729) can0 221#0000000000000000
(1727342968.222676) can0 221#0000000000000000
(1727342968.242678) can0 221#0000000000000000
(1727342968.262675) can0 221#0000000000000000
(1727342968.282684) can0 221#0000000000000000
(1727342968.302705) can0 221#0000000000000000
(1727342968.322693) can0 221#0000000000000000
(1727342968.342705) can0 221#0000000000000000
(1727342968.362735) can0 221#0000000000000000
(1727342968.382812) can0 221#0000000000000000
(1727342968.402809) can0 221#0000000000000000
(1727342968.422706) can0 221#0000000000000000
(1727342968.442715) can0 221#0000000000000000
(1727342968.462722) can0 221#0000000000000000
(1727342968.482718) can0 221#0000000000000000
(1727342968.502729) can0 221#0000000000000000
(1727342968.522712) can0 221#0000000000000000
(1727342968.542705) can0 221#0000000000000000
(1727342968.562722) can0 221#0000000000000000
(1727342968.582716) can0 221#0000000000000000
(1727342968.602799) can0 221#0000000000000000
(1727342968.622808) can0 221#0000000000000000
(1727342968.642807) can0 221#0000000000000000
(1727342968.662849) can0 221#0000000000000000
(1727342968.682794) can0 221#0000000000000000
(1727342968.702723) can0 221#0000000000000000
(1727342968.722804) can0 221#0000000000000000
(1727342968.742795) can0 221#0000000000000000
(1727342968.762795) can0 221#0000000000000000
(1727342968.782796) can0 221#0000000000000000
(1727342968.802804) can0 221#0000000000000000
(1727342968.822795) can0 221#0000000000000000
(1727342968.842790) can0 221#0000000000000000
(1727342968.862799) can0 221#0000000000000000
(1727342968.882810) can0 221#0000000000000000
(1727342968.902798) can0 221#0000000000000000
(1727342968.922800) can0 221#0000000000000000
(1727342968.942801) can0 221#0000000000000000
(1727342968.962795) can0 221#0000000000000000
(1727342968.982804) can0 221#0000000000000000
(1727342969.002796) can0 221#0000000000000000
(1727342969.022804) can0 221#0000000000000000
(1727342969.042813) can0 221#0000000000000000
(1727342969.062799) can0 221#0000000000000000
(1727342969.082795) can0 221#0000000000000000
(1727342969.102828) can0 221#0000000000000000
(1727342969.122797) can0 221#0000000000000000
(1727342969.142813) can0 221#0000000000000000
(1727342969.162797) can0 221#0000000000000000
(1727342969.182802) can0 221#0000000000000000
(1727342969.202807) can0 221#0000000000000000
(1727342969.222805) can0 221#0000000000000000
(1727342969.242806) can0 221#0000000000000000
(1727342969.262807) can0 221#0000000000000000
(1727342969.282804) can0 221#0000000000000000
(1727342969.302808) can0 221#0000000000000000
(1727342969.322846) can0 221#0000000000000000
(1727342969.342808) can0 221#0000000000000000
(1727342969.362820) can0 221#0000000000000000
(1727342969.382809) can0 221#0000000000000000
(1727342969.402863) can0 221#0000000000000000
(1727342969.422914) can0 221#0000000000000000
(1727342969.442825) can0 221#0000000000000000
(1727342969.462956) can0 221#0000000000000000
(1727342969.482818) can0 221#0000000000000000
(1727342969.502836) can0 221#0000000000000000
(1727342969.522837) can0 221#0000000000000000
(1727342969.542835) can0 221#0000000000000000
(1727342969.562822) can0 221#0000000000000000
(1727342969.582844) can0 221#0000000000000000
(1727342969.602927) can0 221#0000000000000000
(1727342969.622842) can0 221#0000000000000000
(1727342969.642862) can0 221#0000000000000000
(1727342969.662856) can0 221#0000000000000000
(1727342969.682844) can0 221#0000000000000000
(1727342969.702832) can0 221#0000000000000000
(1727342969.722841) can0 221#0000000000000000
(1727342969.742857) can0 221#0000000000000000
(1727342969.762859) can0 221#0000000000000000
(1727342969.782856) can0 221#0000000000000000
(1727342969.802842) can0 221#0000000000000000
(1727342969.822854) can0 221#0000000000000000
(1727342969.842855) can0 221#0000000000000000
(1727342969.862866) can0 221#0000000000000000
(1727342969.882937) can0 221#0000000000000000
(1727342969.902939) can0 221#0000000000000000
(1727342969.922937) can0 221#0000000000000000
(1727342969.942867) can0 221#0000000000000000
(1727342969.962870) can0 221#0000000000000000
(1727342969.982889) can0 221#0000000000000000
(1727342970.002925) can0 221#0000000000000000
(1727342970.022879) can0 221#0000000000000000
(1727342970.042887) can0 221#0000000000000000
(1727342970.062882) can0 221#0000000000000000
(1727342970.082898) can0 221#0000000000000000
(1727342970.102949) can0 221#0000000000000000
(1727342970.122959) can0 221#0000000000000000
(1727342970.142942) can0 221#0000000000000000
(1727342970.162930) can0 221#0000000000000000
(1727342970.182898) can0 221#0000000000000000
(1727342970.202905) can0 221#0000000000000000
(1727342970.222901) can0 221#0000000000000000
(1727342970.242905) can0 221#0000000000000000
(1727342970.262900) can0 221#0000000000000000
(1727342970.282899) can0 221#0000000000000000
(1727342970.302930) can0 221#0000000000000000
(1727342970.322902) can0 221#0000000000000000
(1727342970.342914) can0 221#0000000000000000
(1727342970.363006) can0 221#0000000000000000
(1727342970.382956) can0 221#0000000000000000
(1727342970.402927) can0 221#0000000000000000
(1727342970.422947) can0 221#0000000000000000
(1727342970.442927) can0 221#0000000000000000
(1727342970.462931) can0 221#0000000000000000
(1727342970.482934) can0 221#0000000000000000
(1727342970.502934) can0 221#0000000000000000
(1727342970.522935) can0 221#0000000000000000
(1727342970.542939) can0 221#0000000000000000
(1727342970.562941) can0 221#0000000000000000
(1727342970.582929) can0 221#0000000000000000
(1727342970.602981) can0 221#0000000000000000
(1727342970.622993) can0 221#0000000000000000
(1727342970.643004) can0 221#0000000000000000
(1727342970.662981) can0 221#0000000000000000
(1727342970.682979) can0 221#0000000000000000
(1727342970.702980) can0 221#0000000000000000
(1727342970.722962) can0 221#0000000000000000
(1727342970.742945) can0 221#0000000000000000
(1727342970.762962) can0 221#0000000000000000
(1727342970.782973) can0 221#0000000000000000
(1727342970.802963) can0 221#0000000000000000
(1727342970.822976) can0 221#0000000000000000
(1727342970.842987) can0 221#0000000000000000
(1727342970.862996) can0 221#0000000000000000
(1727342970.883000) can0 221#0000000000000000
(1727342970.903018) can0 221#0000000000000000
(1727342970.922998) can0 221#0000000000000000
(1727342970.942969) can0 221#0000000000000000
(1727342970.962976) can0 221#0000000000000000
(1727342970.982985) can0 221#0000000000000000
(1727342971.002993) can0 221#0000000000000000
(1727342971.022996) can0 221#0000000000000000
(1727342971.042998) can0 221#0000000000000000
(1727342971.062993) can0 221#0000000000000000
(1727342971.082997) can0 221#0000000000000000
(1727342971.103007) can0 221#0000000000000000
(1727342971.123055) can0 221#0000000000000000
(1727342971.143055) can0 221#0000000000000000
(1727342971.163068) can0 221#0000000000000000
(1727342971.183012) can0 221#0000000000000000
(1727342971.202999) can0 221#0000000000000000
(1727342971.223000) can0 221#0000000000000000
(1727342971.243012) can0 221#0000000000000000
(1727342971.263011) can0 221#0000000000000000
(1727342971.283037) can0 221#0000000000000000
(1727342971.303037) can0 221#0000000000000000
(1727342971.323040) can0 221#0000000000000000
(1727342971.343023) can0 221#0000000000000000
(1727342971.363055) can0 221#0000000000000000
(1727342971.383075) can0 221#0000000000000000
(1727342971.403078) can0 221#0000000000000000
(1727342971.423068) can0 221#0000000000000000
(1727342971.443041) can0 221#0000000000000000
(1727342971.463067) can0 221#0000000000000000
(1727342971.483036) can0 221#0000000000000000
(1727342971.503062) can0 221#0000000000000000
(1727342971.523067) can0 221#0000000000000000
(1727342971.543068) can0 221#0000000000000000
(1727342971.563068) can0 221#0000000000000000
(1727342971.583086) can0 221#0000000000000000
(1727342971.603120) can0 221#0000000000000000
(1727342971.623124) can0 221#0000000000000000
(1727342971.643192) can0 221#0000000000000000
(1727342971.663202) can0 221#0000000000000000
(1727342971.683188) can0 221#0000000000000000
(1727342971.703191) can0 221#0000000000000000
(1727342971.723244) can0 221#0000000000000000
(1727342971.743249) can0 221#0000000000000000
(1727342971.763292) can0 221#0000000000000000
(1727342971.783318) can0 221#0000000000000000
(1727342971.803081) can0 221#0000000000000000
(1727342971.823092) can0 221#0000000000000000
(1727342971.843088) can0 221#0000000000000000
(1727342971.863135) can0 221#0000000000000000
(1727342971.883131) can0 221#0000000000000000
(1727342971.903120) can0 221#0000000000000000
(1727342971.923157) can0 221#0000000000000000
(1727342971.943075) can0 221#0000000000000000
(1727342971.963094) can0 221#0000000000000000
(1727342971.983089) can0 221#0000000000000000
(1727342972.003094) can0 221#0000000000000000
(1727342972.023106) can0 221#0000000000000000
(1727342972.043127) can0 221#0000000000000000
(1727342972.063122) can0 221#0000000000000000
(1727342972.083099) can0 221#0000000000000000
(1727342972.103131) can0 221#0000000000000000
(1727342972.123122) can0 221#0000000000000000
(1727342972.143143) can0 221#0000000000000000
(1727342972.163143) can0 221#0000000000000000
(1727342972.183112) can0 221#0000000000000000
(1727342972.203125) can0 221#0000000000000000
(1727342972.223121) can0 221#0000000000000000
(1727342972.243129) can0 221#0000000000000000
(1727342972.263134) can0 221#0000000000000000
(1727342972.283126) can0 221#0000000000000000
(1727342972.303138) can0 221#0000000000000000
(1727342972.323136) can0 221#0000000000000000
(1727342972.343197) can0 221#0000000000000000
(1727342972.363206) can0 221#0000000000000000
(1727342972.383205) can0 221#0000000000000000
(1727342972.403162) can0 221#0000000000000000
(1727342972.423147) can0 221#0000000000000000
(1727342972.443161) can0 221#0000000000000000
(1727342972.463138) can0 221#0000000000000000
(1727342972.483162) can0 221#0000000000000000
(1727342972.503158) can0 221#0000000000000000
(1727342972.523176) can0 221#0000000000000000
(1727342972.543160) can0 221#0000000000000000
(1727342972.563169) can0 221#0000000000000000
(1727342972.583161) can0 221#0000000000000000
(1727342972.603216) can0 221#0000000000000000
(1727342972.623208) can0 221#0000000000000000
(1727342972.643215) can0 221#0000000000000000
(1727342972.663208) can0 221#0000000000000000
(1727342972.683189) can0 221#0000000000000000
(1727342972.703161) can0 221#0000000000000000
(1727342972.723187) can0 221#0000000000000000
(1727342972.743186) can0 221#0000000000000000
(1727342972.763192) can0 221#0000000000000000
(1727342972.783190) can0 221#0000000000000000
(1727342972.803184) can0 221#0000000000000000
(1727342972.823194) can0 221#0000000000000000
(1727342972.843206) can0 221#0000000000000000
(1727342972.863216) can0 221#0000000000000000
(1727342972.883205) can0 221#0000000000000000
(1727342972.903206) can0 221#0000000000000000
(1727342972.923216) can0 221#0000000000000000
(1727342972.943214) can0 221#0000000000000000
(1727342972.963204) can0 221#0000000000000000
(1727342972.983197) can0 221#0000000000000000
(1727342973.003206) can0 221#0000000000000000
(1727342973.023217) can0 221#0000000000000000
(1727342973.043229) can0 221#0000000000000000
(1727342973.063214) can0 221#0000000000000000
(1727342973.083216) can0 221#0000000000000000
(1727342973.103267) can0 221#0000000000000000
(1727342973.123268) can0 221#0000000000000000
(1727342973.143272) can0 221#0000000000000000
(1727342973.163269) can0 221#0000000000000000
(1727342973.183217) can0 221#0000000000000000
(1727342973.203226) can0 221#0000000000000000
(1727342973.223245) can0 221#0000000000000000
(1727342973.243237) can0 221#0000000000000000
(1727342973.263247) can0 221#0000000000000000
(1727342973.283237) can0 221#0000000000000000
(1727342973.303239) can0 221#0000000000000000
(1727342973.323253) can0 221#0000000000000000
(1727342973.343268) can0 221#0000000000000000
(1727342973.363294) can0 221#0000000000000000
(1727342973.383292) can0 221#0000000000000000
(1727342973.403259) can0 221#0000000000000000
(1727342973.423294) can0 221#0000000000000000
(1727342973.443265) can0 221#0000000000000000
(1727342973.463267) can0 221#0000000000000000
(1727342973.483265) can0 221#0000000000000000
(1727342973.503275) can0 221#0000000000000000
(1727342973.523276) can0 221#0000000000000000
(1727342973.543273) can0 221#0000000000000000
(1727342973.563297) can0 221#0000000000000000
(1727342973.583297) can0 221#0000000000000000
(1727342973.603291) can0 221#0000000000000000
(1727342973.623334) can0 221#0000000000000000
(1727342973.643342) can0 221#0000000000000000
(1727342973.663291) can0 221#0000000000000000
(1727342973.683296) can0 221#0000000000000000
(1727342973.703296) can0 221#0000000000000000
(1727342973.723321) can0 221#0000000000000000
(1727342973.743322) can0 221#0000000000000000
(1727342973.763323) can0 221#0000000000000000
(1727342973.783326) can0 221#0000000000000000
(1727342973.803308) can0 221#0000000000000000
(1727342973.823329) can0 221#0000000000000000
(1727342973.843394) can0 221#0000000000000000
(1727342973.863417) can0 221#0000000000000000
(1727342973.883395) can0 221#0000000000000000
(1727342973.903471) can0 221#0000000000000000
(1727342973.923489) can0 221#0000000000000000
(1727342973.943471) can0 221#0000000000000000
(1727342973.963483) can0 221#0000000000000000
(1727342973.983494) can0 221#0000000000000000
(1727342974.003508) can0 221#0000000000000000
(1727342974.023325) can0 221#0000000000000000
(1727342974.043343) can0 221#0000000000000000
